
T2094 000:078 SEGGER J-Link V6.10i Log File (0001ms, 0027ms total)
T2094 000:078 DLL Compiled: Oct 25 2016 19:31:51 (0001ms, 0027ms total)
T2094 000:078 Logging started @ 2017-04-26 11:29 (0001ms, 0027ms total)
T2094 000:079 JLINK_SetWarnOutHandler(...) (0000ms, 0027ms total)
T2094 000:079 JLINK_OpenEx(...)
Firmware: J-Link Lite-XMC4200 Rev.1 compiled Jan 14 2016 11:19:27
Hardware: V1.00
S/N: 591066587WEBSRV Webserver running on local port 19080 (0015ms, 0042ms total)
T2094 000:079   returns O.K. (0015ms, 0042ms total)
T2094 000:094 JLINK_SetErrorOutHandler(...) (0000ms, 0042ms total)
T2094 000:094 JLINK_ExecCommand("ProjectFile = "C:\Users\ciara\Dropbox\Applied-Computing\Semester 2\Embedded Systems\CPower_TrafficLights\JLinkSettings.ini"", ...).   returns 0x00 (0159ms, 0201ms total)
T2094 000:253 JLINK_ExecCommand("Device = XMC1100-Q024x0064", ...). Device "XMC1100-0064" selected.  returns 0x00 (0000ms, 0201ms total)
T2094 000:253 JLINK_ExecCommand("DisableConnectionTimeout", ...).   returns 0x01 (0000ms, 0201ms total)
T2094 000:253 JLINK_GetHardwareVersion()  returns 0x2710 (0000ms, 0201ms total)
T2094 000:253 JLINK_GetDLLVersion()  returns 61009 (0000ms, 0201ms total)
T2094 000:253 JLINK_GetFirmwareString(...) (0000ms, 0201ms total)
T2094 000:253 JLINK_GetDLLVersion()  returns 61009 (0000ms, 0201ms total)
T2094 000:253 JLINK_GetCompileDateTime() (0000ms, 0201ms total)
T2094 000:253 JLINK_GetFirmwareString(...) (0000ms, 0201ms total)
T2094 000:253 JLINK_GetHardwareVersion()  returns 0x2710 (0000ms, 0201ms total)
T2094 000:253 JLINK_TIF_Select(JLINKARM_TIF_SWD)  returns 0x00 (0002ms, 0203ms total)
T2094 000:255 JLINK_SetSpeed(5000) (0001ms, 0204ms total)
T2094 000:256 JLINK_GetId()Performing XMC1000 connection sequence.Firmware of connected J-Link (S/N 591066587) is too old and does not support connect for this device. Debugging may not be reliableTrying to identify target via SPD >0x108 TIF>Could not identify target via SPD. Trying again via SWD. >0x108 TIF>Found SWD-DP with ID 0x0BB11477 >0x0D TIF> >0x28 TIF> >0x0D TIF> >0x28 TIF> >0x0D TIF> >0x28 TIF> >0x0D TIF> >0x28 TIF> >0x0D TIF> >0x21 TIF> >0x0D TIF> >0x28 TIF> >0x0D TIF> >0x28 TIF> >0x0D TIF>
 >0x21 TIF> >0x0D TIF> >0x21 TIF> >0x0D TIF> >0x21 TIF>AP-IDR: 0x04770021, Type: AHB-AP >0x0D TIF> >0x28 TIF> >0x0D TIF> >0x28 TIF> >0x0D TIF> >0x28 TIF> >0x0D TIF> >0x21 TIF> >0x0D TIF> >0x21 TIF> >0x0D TIF> >0x28 TIF> >0x0D TIF> >0x21 TIF> >0x0D TIF> >0x21 TIF>Found Cortex-M0 r0p0, Little endian. -- CPU_ReadMem(4 bytes @ 0xE000EDF0) -- CPU_WriteMem(4 bytes @ 0xE000EDF0) -- CPU_ReadMem(4 bytes @ 0xE0002000)FPUnit: 4 code (BP) slots and 0 literal slots -- CPU_ReadMem(4 bytes @ 0xE000EDFC)
 -- CPU_WriteMem(4 bytes @ 0xE000EDFC) -- CPU_ReadMem(4 bytes @ 0xE0001000) -- CPU_WriteMem(4 bytes @ 0xE0001000)CoreSight components:ROMTbl 0 @ F0000000 -- CPU_ReadMem(16 bytes @ 0xF0000000) -- CPU_ReadMem(16 bytes @ 0xE00FFFF0) -- CPU_ReadMem(16 bytes @ 0xE00FFFE0)ROMTbl 0 [0]: F00FF000, CID: B105100D, PID: 000BB471 ROM TableROMTbl 1 @ E00FF000 -- CPU_ReadMem(16 bytes @ 0xE00FF000) -- CPU_ReadMem(16 bytes @ 0xE000EFF0) -- CPU_ReadMem(16 bytes @ 0xE000EFE0)
ROMTbl 1 [0]: FFF0F000, CID: B105E00D, PID: 000BB008 SCS -- CPU_ReadMem(16 bytes @ 0xE0001FF0) -- CPU_ReadMem(16 bytes @ 0xE0001FE0)ROMTbl 1 [1]: FFF02000, CID: B105E00D, PID: 000BB00A DWT -- CPU_ReadMem(16 bytes @ 0xE0002FF0) -- CPU_ReadMem(16 bytes @ 0xE0002FE0)ROMTbl 1 [2]: FFF03000, CID: B105E00D, PID: 000BB00B FPB >0x0D TIF> >0x21 TIF>  returns 0x0BB11477 (0027ms, 0231ms total)
T2094 000:283 JLINK_GetDLLVersion()  returns 61009 (0000ms, 0231ms total)
T2094 000:283 JLINK_CORE_GetFound()  returns 0x60000FF (0000ms, 0231ms total)
T2094 000:283 JLINK_GetDebugInfo(0x100) -- Value=0xF0000000  returns 0x00 (0000ms, 0231ms total)
T2094 000:283 JLINK_GetDebugInfo(0x100) -- Value=0xF0000000  returns 0x00 (0000ms, 0231ms total)
T2094 000:283 JLINK_GetDebugInfo(0x101) -- Value=0x00000000  returns 0x00 (0000ms, 0231ms total)
T2094 000:283 JLINK_ReadMem (0xE0041FF0, 0x0010 Bytes, ...) -- CPU is running -- CPU_ReadMem(16 bytes @ 0xE0041FF0) - Data: 00 00 00 00 00 00 00 00 00 00 00 00 00 00 00 00  returns 0x00 (0001ms, 0232ms total)
T2094 000:284 JLINK_GetDebugInfo(0x102) -- Value=0x00000000  returns 0x00 (0000ms, 0232ms total)
T2094 000:284 JLINK_GetDebugInfo(0x103) -- Value=0x00000000  returns 0x00 (0000ms, 0232ms total)
T2094 000:284 JLINK_ReadMem (0xE0040FF0, 0x0010 Bytes, ...) -- CPU is running -- CPU_ReadMem(16 bytes @ 0xE0040FF0) - Data: 00 00 00 00 00 00 00 00 00 00 00 00 00 00 00 00  returns 0x00 (0000ms, 0232ms total)
T2094 000:284 JLINK_GetDebugInfo(0x104) -- Value=0xE0000000  returns 0x00 (0000ms, 0232ms total)
T2094 000:284 JLINK_GetDebugInfo(0x105) -- Value=0xE0001000  returns 0x00 (0000ms, 0232ms total)
T2094 000:284 JLINK_GetDebugInfo(0x106) -- Value=0xE0002000  returns 0x00 (0000ms, 0232ms total)
T2094 000:284 JLINK_GetDebugInfo(0x107) -- Value=0xE000E000  returns 0x00 (0000ms, 0232ms total)
T2094 000:284 JLINK_GetDebugInfo(0x10C) -- Value=0xE000EDF0  returns 0x00 (0001ms, 0233ms total)
T2094 000:285 JLINK_ReadMemU32(0xE000ED00, 0x0001 Items, ...) -- CPU is running -- CPU_ReadMem(4 bytes @ 0xE000ED00) - Data: 00 C2 0C 41  returns 0x01 (0000ms, 0233ms total)
T2094 000:285 JLINK_SetResetType(JLINKARM_RESET_TYPE_NORMAL)  returns JLINKARM_RESET_TYPE_NORMAL (0000ms, 0233ms total)
T2094 000:285 JLINK_Reset()Performing XMC1000 reset -- CPU_ReadMem(4 bytes @ 0x10001004) -- CPU_WriteMem(4 bytes @ 0xE0002000) -- CPU_ReadMem(4 bytes @ 0xE0002008) -- CPU_WriteMem(4 bytes @ 0xE0002008) -- CPU_WriteMem(4 bytes @ 0xE000ED0C) -- CPU is running -- CPU_WriteMem(4 bytes @ 0xE0002008) -- CPU_WriteMem(4 bytes @ 0xE0002000) -- CPU_ReadMem(4 bytes @ 0xE000EDFC) -- CPU_ReadMem(4 bytes @ 0xE0001000) -- CPU_WriteMem(4 bytes @ 0xE0001000) (0035ms, 0268ms total)
T2094 000:320 JLINK_ReadReg(R15 (PC))  returns 0x100010BC (0000ms, 0268ms total)
T2094 000:320 JLINK_ReadReg(XPSR)  returns 0x61000000 (0000ms, 0268ms total)
T2094 000:320 JLINK_Halt()  returns 0x00 (0000ms, 0268ms total)
T2094 000:320 JLINK_IsHalted()  returns TRUE (0000ms, 0268ms total)
T2094 000:320 JLINK_ReadMemU32(0xE000EDF0, 0x0001 Items, ...) -- CPU_ReadMem(4 bytes @ 0xE000EDF0) - Data: 03 00 03 00  returns 0x01 (0000ms, 0268ms total)
T2094 000:320 JLINK_WriteU32(0xE000EDF0, 0xA05F0003) -- CPU_WriteMem(4 bytes @ 0xE000EDF0)  returns 0x00 (0001ms, 0269ms total)
T2094 000:321 JLINK_WriteU32(0xE000EDFC, 0x01000000) -- CPU_WriteMem(4 bytes @ 0xE000EDFC)  returns 0x00 (0001ms, 0270ms total)
T2094 000:322 JLINK_GetHWStatus(...)  returns 0x00 (0000ms, 0270ms total)
T2094 000:322 JLINK_GetNumBPUnits(Type = 0xFFFFFF00)  returns 0x04 (0000ms, 0270ms total)
T2094 000:322 JLINK_GetNumBPUnits(Type = 0xF0)  returns 0x2000 (0000ms, 0270ms total)
T2094 000:322 JLINK_GetNumWPUnits()  returns 0x02 (0000ms, 0270ms total)
T2094 000:322 JLINK_GetSpeed()  returns 0xBB8 (0000ms, 0270ms total)
T2094 000:322 JLINK_ReadMemU32(0xE000E004, 0x0001 Items, ...) -- CPU_ReadMem(4 bytes @ 0xE000E004) - Data: 00 00 00 00  returns 0x01 (0001ms, 0271ms total)
T2094 000:323 JLINK_ReadReg(R15 (PC))  returns 0x100010BC (0000ms, 0271ms total)
T2094 000:323 JLINK_ReadReg(XPSR)  returns 0x61000000 (0000ms, 0271ms total)
T2094 000:392 JLINK_SetResetType(JLINKARM_RESET_TYPE_NORMAL)  returns JLINKARM_RESET_TYPE_NORMAL (0000ms, 0271ms total)
T2094 000:392 JLINK_Reset()Performing XMC1000 reset -- CPU_ReadMem(4 bytes @ 0x10001004) -- CPU_WriteMem(4 bytes @ 0xE0002000) -- CPU_ReadMem(4 bytes @ 0xE0002008) -- CPU_WriteMem(4 bytes @ 0xE0002008) -- CPU_WriteMem(4 bytes @ 0xE000ED0C) -- CPU is running -- CPU_WriteMem(4 bytes @ 0xE0002008) -- CPU_WriteMem(4 bytes @ 0xE0002000) -- CPU_ReadMem(4 bytes @ 0xE000EDFC) -- CPU_ReadMem(4 bytes @ 0xE0001000) -- CPU_WriteMem(4 bytes @ 0xE0001000) (0032ms, 0303ms total)
T2094 000:424 JLINK_ReadReg(R15 (PC))  returns 0x100010BC (0000ms, 0303ms total)
T2094 000:424 JLINK_ReadReg(XPSR)  returns 0x61000000 (0000ms, 0303ms total)
T2094 000:424 JLINK_ReadMem (0x100010BC, 0x003C Bytes, ...) -- CPU_ReadMem(128 bytes @ 0x10001080) -- Updating C cache (128 bytes @ 0x10001080) -- Read from C cache (60 bytes @ 0x100010BC) - Data: 08 49 09 4A 30 20 0A 60 04 31 40 1E FB D1 07 48 ...  returns 0x00 (0002ms, 0305ms total)
T2094 000:509 JLINK_ReadMem (0x40040000, 0x0004 Bytes, ...) -- CPU_ReadMem(4 bytes @ 0x40040000) - Data: 00 00 00 00  returns 0x00 (0001ms, 0306ms total)
T2094 000:510 JLINK_ReadMem (0x40040010, 0x000C Bytes, ...) -- CPU_ReadMem(12 bytes @ 0x40040010) - Data: 00 00 00 00 00 00 00 00 00 00 00 00  returns 0x00 (0000ms, 0306ms total)
T2094 000:510 JLINK_ReadMem (0x4004001C, 0x0004 Bytes, ...) -- CPU_ReadMem(4 bytes @ 0x4004001C) - Data: 00 00 10 00  returns 0x00 (0001ms, 0307ms total)
T2094 000:511 JLINK_ReadMem (0x40040024, 0x0004 Bytes, ...) -- CPU_ReadMem(4 bytes @ 0x40040024) - Data: 3F 4C 00 00  returns 0x00 (0001ms, 0308ms total)
T2094 000:512 JLINK_ReadMem (0x40040040, 0x0004 Bytes, ...) -- CPU_ReadMem(4 bytes @ 0x40040040) - Data: 00 00 00 00  returns 0x00 (0001ms, 0309ms total)
T2094 000:513 JLINK_ReadMem (0x40040044, 0x0004 Bytes, ...) -- CPU_ReadMem(4 bytes @ 0x40040044) - Data: 00 00 00 00  returns 0x00 (0000ms, 0309ms total)
T2094 000:513 JLINK_ReadMem (0x40040060, 0x0004 Bytes, ...) -- CPU_ReadMem(4 bytes @ 0x40040060) - Data: 1E 0C 00 00  returns 0x00 (0001ms, 0310ms total)
T2094 000:514 JLINK_ReadMem (0x40040070, 0x0004 Bytes, ...) -- CPU_ReadMem(4 bytes @ 0x40040070) - Data: 00 00 00 00  returns 0x00 (0000ms, 0310ms total)
T2094 000:514 JLINK_ReadMem (0x40040074, 0x0004 Bytes, ...) -- CPU_ReadMem(4 bytes @ 0x40040074) - Data: 00 00 00 00  returns 0x00 (0001ms, 0311ms total)
T2094 000:546 JLINK_ReadMem (0x40040200, 0x0004 Bytes, ...) -- CPU_ReadMem(4 bytes @ 0x40040200) - Data: 00 00 00 00  returns 0x00 (0001ms, 0312ms total)
T2094 000:547 JLINK_ReadMem (0x40040210, 0x0008 Bytes, ...) -- CPU_ReadMem(8 bytes @ 0x40040210) - Data: 00 00 00 00 00 00 00 00  returns 0x00 (0001ms, 0313ms total)
T2094 000:548 JLINK_ReadMem (0x40040218, 0x0004 Bytes, ...) -- CPU_ReadMem(4 bytes @ 0x40040218) - Data: 00 00 00 00  returns 0x00 (0000ms, 0313ms total)
T2094 000:548 JLINK_ReadMem (0x40040224, 0x0004 Bytes, ...) -- CPU_ReadMem(4 bytes @ 0x40040224) - Data: FF 0F 00 00  returns 0x00 (0001ms, 0314ms total)
T2094 000:549 JLINK_ReadMem (0x40040240, 0x0004 Bytes, ...) -- CPU_ReadMem(4 bytes @ 0x40040240) - Data: 00 00 00 00  returns 0x00 (0001ms, 0315ms total)
T2094 000:550 JLINK_ReadMem (0x40040244, 0x0004 Bytes, ...) -- CPU_ReadMem(4 bytes @ 0x40040244) - Data: 00 00 00 00  returns 0x00 (0000ms, 0315ms total)
T2094 000:550 JLINK_ReadMem (0x40040260, 0x0004 Bytes, ...) -- CPU_ReadMem(4 bytes @ 0x40040260) - Data: FF 0F 00 00  returns 0x00 (0001ms, 0316ms total)
T2094 000:551 JLINK_ReadMem (0x40040270, 0x0004 Bytes, ...) -- CPU_ReadMem(4 bytes @ 0x40040270) - Data: 00 00 00 00  returns 0x00 (0000ms, 0316ms total)
T2094 000:551 JLINK_ReadMem (0x40040274, 0x0004 Bytes, ...) -- CPU_ReadMem(4 bytes @ 0x40040274) - Data: 00 00 00 00  returns 0x00 (0001ms, 0317ms total)
T2094 001:672 JLINK_ReadMem (0x40040200, 0x0004 Bytes, ...) -- CPU_ReadMem(4 bytes @ 0x40040200) - Data: 00 00 00 00  returns 0x00 (0001ms, 0318ms total)
T2094 001:673 JLINK_ReadMem (0x40040210, 0x0008 Bytes, ...) -- CPU_ReadMem(8 bytes @ 0x40040210) - Data: 00 00 00 00 00 00 00 00  returns 0x00 (0001ms, 0319ms total)
T2094 001:674 JLINK_ReadMem (0x40040218, 0x0004 Bytes, ...) -- CPU_ReadMem(4 bytes @ 0x40040218) - Data: 00 00 00 00  returns 0x00 (0000ms, 0319ms total)
T2094 001:674 JLINK_ReadMem (0x40040224, 0x0004 Bytes, ...) -- CPU_ReadMem(4 bytes @ 0x40040224) - Data: FF 0F 00 00  returns 0x00 (0001ms, 0320ms total)
T2094 001:675 JLINK_ReadMem (0x40040240, 0x0004 Bytes, ...) -- CPU_ReadMem(4 bytes @ 0x40040240) - Data: 00 00 00 00  returns 0x00 (0001ms, 0321ms total)
T2094 001:676 JLINK_ReadMem (0x40040244, 0x0004 Bytes, ...) -- CPU_ReadMem(4 bytes @ 0x40040244) - Data: 00 00 00 00  returns 0x00 (0000ms, 0321ms total)
T2094 001:676 JLINK_ReadMem (0x40040260, 0x0004 Bytes, ...) -- CPU_ReadMem(4 bytes @ 0x40040260) - Data: FF 0F 00 00  returns 0x00 (0001ms, 0322ms total)
T2094 001:677 JLINK_ReadMem (0x40040270, 0x0004 Bytes, ...) -- CPU_ReadMem(4 bytes @ 0x40040270) - Data: 00 00 00 00  returns 0x00 (0000ms, 0322ms total)
T2094 001:677 JLINK_ReadMem (0x40040274, 0x0004 Bytes, ...) -- CPU_ReadMem(4 bytes @ 0x40040274) - Data: 00 00 00 00  returns 0x00 (0001ms, 0323ms total)
T2094 001:678 JLINK_ReadMem (0x40040000, 0x0004 Bytes, ...) -- CPU_ReadMem(4 bytes @ 0x40040000) - Data: 00 00 00 00  returns 0x00 (0001ms, 0324ms total)
T2094 001:679 JLINK_ReadMem (0x40040010, 0x000C Bytes, ...) -- CPU_ReadMem(12 bytes @ 0x40040010) - Data: 00 00 00 00 00 00 00 00 00 00 00 00  returns 0x00 (0001ms, 0325ms total)
T2094 001:680 JLINK_ReadMem (0x4004001C, 0x0004 Bytes, ...) -- CPU_ReadMem(4 bytes @ 0x4004001C) - Data: 00 00 10 00  returns 0x00 (0000ms, 0325ms total)
T2094 001:680 JLINK_ReadMem (0x40040024, 0x0004 Bytes, ...) -- CPU_ReadMem(4 bytes @ 0x40040024) - Data: 3F 4C 00 00  returns 0x00 (0001ms, 0326ms total)
T2094 001:681 JLINK_ReadMem (0x40040040, 0x0004 Bytes, ...) -- CPU_ReadMem(4 bytes @ 0x40040040) - Data: 00 00 00 00  returns 0x00 (0000ms, 0326ms total)
T2094 001:681 JLINK_ReadMem (0x40040044, 0x0004 Bytes, ...) -- CPU_ReadMem(4 bytes @ 0x40040044) - Data: 00 00 00 00  returns 0x00 (0001ms, 0327ms total)
T2094 001:682 JLINK_ReadMem (0x40040060, 0x0004 Bytes, ...) -- CPU_ReadMem(4 bytes @ 0x40040060) - Data: 1E 0C 00 00  returns 0x00 (0001ms, 0328ms total)
T2094 001:683 JLINK_ReadMem (0x40040070, 0x0004 Bytes, ...) -- CPU_ReadMem(4 bytes @ 0x40040070) - Data: 00 00 00 00  returns 0x00 (0000ms, 0328ms total)
T2094 001:683 JLINK_ReadMem (0x40040074, 0x0004 Bytes, ...) -- CPU_ReadMem(4 bytes @ 0x40040074) - Data: 00 00 00 00  returns 0x00 (0001ms, 0329ms total)
T21D0 002:792 JLINK_Go() -- CPU_ReadMem(4 bytes @ 0xE0001000) -- CPU_WriteMem(4 bytes @ 0xE0001000) -- CPU_WriteMem(4 bytes @ 0xE0001004) (0003ms, 0332ms total)
T21D0 002:896 JLINK_IsHalted()  returns FALSE (0001ms, 0333ms total)
T21D0 002:997 JLINK_IsHalted()  returns FALSE (0001ms, 0333ms total)
T21D0 003:099 JLINK_IsHalted()  returns FALSE (0001ms, 0333ms total)
T21D0 003:200 JLINK_IsHalted()  returns FALSE (0000ms, 0332ms total)
T2094 003:301 JLINK_ReadMem (0x40040200, 0x0004 Bytes, ...) -- CPU is running -- CPU_ReadMem(4 bytes @ 0x40040200) - Data: 00 00 00 00  returns 0x00 (0001ms, 0333ms total)
T2094 003:302 JLINK_ReadMem (0x40040210, 0x0008 Bytes, ...) -- CPU is running -- CPU_ReadMem(8 bytes @ 0x40040210) - Data: 00 00 00 00 00 00 00 00  returns 0x00 (0001ms, 0334ms total)
T2094 003:303 JLINK_ReadMem (0x40040218, 0x0004 Bytes, ...) -- CPU is running -- CPU_ReadMem(4 bytes @ 0x40040218) - Data: 00 00 80 80  returns 0x00 (0001ms, 0335ms total)
T2094 003:304 JLINK_ReadMem (0x40040224, 0x0004 Bytes, ...) -- CPU is running -- CPU_ReadMem(4 bytes @ 0x40040224) - Data: FF 03 00 00  returns 0x00 (0001ms, 0336ms total)
T2094 003:305 JLINK_ReadMem (0x40040240, 0x0004 Bytes, ...) -- CPU is running -- CPU_ReadMem(4 bytes @ 0x40040240) - Data: 00 00 00 00  returns 0x00 (0001ms, 0337ms total)
T2094 003:306 JLINK_ReadMem (0x40040244, 0x0004 Bytes, ...) -- CPU is running -- CPU_ReadMem(4 bytes @ 0x40040244) - Data: 00 00 00 00  returns 0x00 (0001ms, 0338ms total)
T2094 003:307 JLINK_ReadMem (0x40040260, 0x0004 Bytes, ...) -- CPU is running -- CPU_ReadMem(4 bytes @ 0x40040260) - Data: FF 03 00 00  returns 0x00 (0001ms, 0339ms total)
T2094 003:308 JLINK_ReadMem (0x40040270, 0x0004 Bytes, ...) -- CPU is running -- CPU_ReadMem(4 bytes @ 0x40040270) - Data: 00 00 00 00  returns 0x00 (0001ms, 0340ms total)
T2094 003:309 JLINK_ReadMem (0x40040274, 0x0004 Bytes, ...) -- CPU is running -- CPU_ReadMem(4 bytes @ 0x40040274) - Data: 00 00 00 00  returns 0x00 (0001ms, 0341ms total)
T2094 003:331 JLINK_ReadMem (0x40040000, 0x0004 Bytes, ...) -- CPU is running -- CPU_ReadMem(4 bytes @ 0x40040000) - Data: 20 00 00 00  returns 0x00 (0002ms, 0343ms total)
T2094 003:333 JLINK_ReadMem (0x40040010, 0x000C Bytes, ...) -- CPU is running -- CPU_ReadMem(12 bytes @ 0x40040010) - Data: 80 00 00 00 00 80 00 00 00 00 00 00  returns 0x00 (0001ms, 0344ms total)
T2094 003:334 JLINK_ReadMem (0x4004001C, 0x0004 Bytes, ...) -- CPU is running -- CPU_ReadMem(4 bytes @ 0x4004001C) - Data: 00 00 10 00  returns 0x00 (0001ms, 0345ms total)
T2094 003:335 JLINK_ReadMem (0x40040024, 0x0004 Bytes, ...) -- CPU is running -- CPU_ReadMem(4 bytes @ 0x40040024) - Data: 3E 4C 00 00  returns 0x00 (0001ms, 0346ms total)
T2094 003:336 JLINK_ReadMem (0x40040040, 0x0004 Bytes, ...) -- CPU is running -- CPU_ReadMem(4 bytes @ 0x40040040) - Data: 00 00 00 00  returns 0x00 (0001ms, 0347ms total)
T2094 003:337 JLINK_ReadMem (0x40040044, 0x0004 Bytes, ...) -- CPU is running -- CPU_ReadMem(4 bytes @ 0x40040044) - Data: 00 00 00 00  returns 0x00 (0001ms, 0348ms total)
T2094 003:338 JLINK_ReadMem (0x40040060, 0x0004 Bytes, ...) -- CPU is running -- CPU_ReadMem(4 bytes @ 0x40040060) - Data: 1E 0C 00 00  returns 0x00 (0001ms, 0349ms total)
T2094 003:339 JLINK_ReadMem (0x40040070, 0x0004 Bytes, ...) -- CPU is running -- CPU_ReadMem(4 bytes @ 0x40040070) - Data: 00 00 00 00  returns 0x00 (0001ms, 0350ms total)
T2094 003:340 JLINK_ReadMem (0x40040074, 0x0004 Bytes, ...) -- CPU is running -- CPU_ReadMem(4 bytes @ 0x40040074) - Data: 00 00 00 00  returns 0x00 (0001ms, 0351ms total)
T21D0 003:343 JLINK_IsHalted()  returns FALSE (0001ms, 0352ms total)
T21D0 003:445 JLINK_IsHalted()  returns FALSE (0001ms, 0352ms total)
T21D0 003:546 JLINK_IsHalted()  returns FALSE (0000ms, 0351ms total)
T21D0 003:647 JLINK_IsHalted()  returns FALSE (0000ms, 0351ms total)
T21D0 003:748 JLINK_IsHalted()  returns FALSE (0001ms, 0352ms total)
T2094 003:849 JLINK_ReadMem (0x40040200, 0x0004 Bytes, ...) -- CPU is running -- CPU_ReadMem(4 bytes @ 0x40040200) - Data: 00 00 00 00  returns 0x00 (0001ms, 0352ms total)
T2094 003:850 JLINK_ReadMem (0x40040210, 0x0008 Bytes, ...) -- CPU is running -- CPU_ReadMem(8 bytes @ 0x40040210) - Data: 00 00 00 00 00 00 00 00  returns 0x00 (0001ms, 0353ms total)
T2094 003:851 JLINK_ReadMem (0x40040218, 0x0004 Bytes, ...) -- CPU is running -- CPU_ReadMem(4 bytes @ 0x40040218) - Data: 00 00 80 80  returns 0x00 (0001ms, 0354ms total)
T2094 003:852 JLINK_ReadMem (0x40040224, 0x0004 Bytes, ...) -- CPU is running -- CPU_ReadMem(4 bytes @ 0x40040224) - Data: FF 03 00 00  returns 0x00 (0001ms, 0355ms total)
T2094 003:853 JLINK_ReadMem (0x40040240, 0x0004 Bytes, ...) -- CPU is running -- CPU_ReadMem(4 bytes @ 0x40040240) - Data: 00 00 00 00  returns 0x00 (0001ms, 0356ms total)
T2094 003:854 JLINK_ReadMem (0x40040244, 0x0004 Bytes, ...) -- CPU is running -- CPU_ReadMem(4 bytes @ 0x40040244) - Data: 00 00 00 00  returns 0x00 (0001ms, 0357ms total)
T2094 003:855 JLINK_ReadMem (0x40040260, 0x0004 Bytes, ...) -- CPU is running -- CPU_ReadMem(4 bytes @ 0x40040260) - Data: FF 03 00 00  returns 0x00 (0001ms, 0358ms total)
T2094 003:856 JLINK_ReadMem (0x40040270, 0x0004 Bytes, ...) -- CPU is running -- CPU_ReadMem(4 bytes @ 0x40040270) - Data: 00 00 00 00  returns 0x00 (0001ms, 0359ms total)
T2094 003:857 JLINK_ReadMem (0x40040274, 0x0004 Bytes, ...) -- CPU is running -- CPU_ReadMem(4 bytes @ 0x40040274) - Data: 00 00 00 00  returns 0x00 (0002ms, 0361ms total)
T2094 003:859 JLINK_ReadMem (0x40040000, 0x0004 Bytes, ...) -- CPU is running -- CPU_ReadMem(4 bytes @ 0x40040000) - Data: 01 00 00 00  returns 0x00 (0001ms, 0362ms total)
T2094 003:860 JLINK_ReadMem (0x40040010, 0x000C Bytes, ...) -- CPU is running -- CPU_ReadMem(12 bytes @ 0x40040010) - Data: 80 00 00 00 00 80 00 00 00 00 00 00  returns 0x00 (0002ms, 0364ms total)
T2094 003:862 JLINK_ReadMem (0x4004001C, 0x0004 Bytes, ...) -- CPU is running -- CPU_ReadMem(4 bytes @ 0x4004001C) - Data: 00 00 10 00  returns 0x00 (0001ms, 0365ms total)
T2094 003:863 JLINK_ReadMem (0x40040024, 0x0004 Bytes, ...) -- CPU is running -- CPU_ReadMem(4 bytes @ 0x40040024) - Data: 5F 4C 00 00  returns 0x00 (0000ms, 0365ms total)
T2094 003:863 JLINK_ReadMem (0x40040040, 0x0004 Bytes, ...) -- CPU is running -- CPU_ReadMem(4 bytes @ 0x40040040) - Data: 00 00 00 00  returns 0x00 (0001ms, 0366ms total)
T2094 003:864 JLINK_ReadMem (0x40040044, 0x0004 Bytes, ...) -- CPU is running -- CPU_ReadMem(4 bytes @ 0x40040044) - Data: 00 00 00 00  returns 0x00 (0001ms, 0367ms total)
T2094 003:865 JLINK_ReadMem (0x40040060, 0x0004 Bytes, ...) -- CPU is running -- CPU_ReadMem(4 bytes @ 0x40040060) - Data: 1E 0C 00 00  returns 0x00 (0002ms, 0369ms total)
T2094 003:867 JLINK_ReadMem (0x40040070, 0x0004 Bytes, ...) -- CPU is running -- CPU_ReadMem(4 bytes @ 0x40040070) - Data: 00 00 00 00  returns 0x00 (0001ms, 0370ms total)
T2094 003:868 JLINK_ReadMem (0x40040074, 0x0004 Bytes, ...) -- CPU is running -- CPU_ReadMem(4 bytes @ 0x40040074) - Data: 00 00 00 00  returns 0x00 (0000ms, 0370ms total)
T21D0 003:870 JLINK_IsHalted()  returns FALSE (0001ms, 0371ms total)
T21D0 003:972 JLINK_IsHalted()  returns FALSE (0001ms, 0371ms total)
T21D0 004:073 JLINK_IsHalted()  returns FALSE (0001ms, 0371ms total)
T21D0 004:175 JLINK_IsHalted()  returns FALSE (0000ms, 0370ms total)
T21D0 004:276 JLINK_IsHalted()  returns FALSE (0001ms, 0371ms total)
T2094 004:377 JLINK_ReadMem (0x40040200, 0x0004 Bytes, ...) -- CPU is running -- CPU_ReadMem(4 bytes @ 0x40040200) - Data: 00 00 00 00  returns 0x00 (0001ms, 0371ms total)
T2094 004:378 JLINK_ReadMem (0x40040210, 0x0008 Bytes, ...) -- CPU is running -- CPU_ReadMem(8 bytes @ 0x40040210) - Data: 00 00 00 00 00 00 00 00  returns 0x00 (0001ms, 0372ms total)
T2094 004:379 JLINK_ReadMem (0x40040218, 0x0004 Bytes, ...) -- CPU is running -- CPU_ReadMem(4 bytes @ 0x40040218) - Data: 00 00 80 80  returns 0x00 (0001ms, 0373ms total)
T2094 004:380 JLINK_ReadMem (0x40040224, 0x0004 Bytes, ...) -- CPU is running -- CPU_ReadMem(4 bytes @ 0x40040224) - Data: FF 03 00 00  returns 0x00 (0001ms, 0374ms total)
T2094 004:381 JLINK_ReadMem (0x40040240, 0x0004 Bytes, ...) -- CPU is running -- CPU_ReadMem(4 bytes @ 0x40040240) - Data: 00 00 00 00  returns 0x00 (0001ms, 0375ms total)
T2094 004:382 JLINK_ReadMem (0x40040244, 0x0004 Bytes, ...) -- CPU is running -- CPU_ReadMem(4 bytes @ 0x40040244) - Data: 00 00 00 00  returns 0x00 (0001ms, 0376ms total)
T2094 004:383 JLINK_ReadMem (0x40040260, 0x0004 Bytes, ...) -- CPU is running -- CPU_ReadMem(4 bytes @ 0x40040260) - Data: FF 03 00 00  returns 0x00 (0001ms, 0377ms total)
T2094 004:384 JLINK_ReadMem (0x40040270, 0x0004 Bytes, ...) -- CPU is running -- CPU_ReadMem(4 bytes @ 0x40040270) - Data: 00 00 00 00  returns 0x00 (0001ms, 0378ms total)
T2094 004:385 JLINK_ReadMem (0x40040274, 0x0004 Bytes, ...) -- CPU is running -- CPU_ReadMem(4 bytes @ 0x40040274) - Data: 00 00 00 00  returns 0x00 (0001ms, 0379ms total)
T2094 004:387 JLINK_ReadMem (0x40040000, 0x0004 Bytes, ...) -- CPU is running -- CPU_ReadMem(4 bytes @ 0x40040000) - Data: 01 00 00 00  returns 0x00 (0001ms, 0380ms total)
T2094 004:388 JLINK_ReadMem (0x40040010, 0x000C Bytes, ...) -- CPU is running -- CPU_ReadMem(12 bytes @ 0x40040010) - Data: 80 00 00 00 00 80 00 00 00 00 00 00  returns 0x00 (0001ms, 0381ms total)
T2094 004:389 JLINK_ReadMem (0x4004001C, 0x0004 Bytes, ...) -- CPU is running -- CPU_ReadMem(4 bytes @ 0x4004001C) - Data: 00 00 10 00  returns 0x00 (0001ms, 0382ms total)
T2094 004:390 JLINK_ReadMem (0x40040024, 0x0004 Bytes, ...) -- CPU is running -- CPU_ReadMem(4 bytes @ 0x40040024) - Data: 1F 4C 00 00  returns 0x00 (0001ms, 0383ms total)
T2094 004:391 JLINK_ReadMem (0x40040040, 0x0004 Bytes, ...) -- CPU is running -- CPU_ReadMem(4 bytes @ 0x40040040) - Data: 00 00 00 00  returns 0x00 (0001ms, 0384ms total)
T2094 004:392 JLINK_ReadMem (0x40040044, 0x0004 Bytes, ...) -- CPU is running -- CPU_ReadMem(4 bytes @ 0x40040044) - Data: 00 00 00 00  returns 0x00 (0001ms, 0385ms total)
T2094 004:393 JLINK_ReadMem (0x40040060, 0x0004 Bytes, ...) -- CPU is running -- CPU_ReadMem(4 bytes @ 0x40040060) - Data: 1E 0C 00 00  returns 0x00 (0001ms, 0386ms total)
T2094 004:394 JLINK_ReadMem (0x40040070, 0x0004 Bytes, ...) -- CPU is running -- CPU_ReadMem(4 bytes @ 0x40040070) - Data: 00 00 00 00  returns 0x00 (0001ms, 0387ms total)
T2094 004:395 JLINK_ReadMem (0x40040074, 0x0004 Bytes, ...) -- CPU is running -- CPU_ReadMem(4 bytes @ 0x40040074) - Data: 00 00 00 00  returns 0x00 (0001ms, 0388ms total)
T21D0 004:397 JLINK_IsHalted()  returns FALSE (0001ms, 0389ms total)
T21D0 004:499 JLINK_IsHalted()  returns FALSE (0000ms, 0388ms total)
T21D0 004:600 JLINK_IsHalted()  returns FALSE (0001ms, 0389ms total)
T21D0 004:701 JLINK_IsHalted()  returns FALSE (0001ms, 0389ms total)
T21D0 004:803 JLINK_IsHalted()  returns FALSE (0000ms, 0388ms total)
T2094 004:907 JLINK_ReadMem (0x40040200, 0x0004 Bytes, ...) -- CPU is running -- CPU_ReadMem(4 bytes @ 0x40040200) - Data: 00 00 00 00  returns 0x00 (0001ms, 0389ms total)
